meanFreq_MaxS11,mean_MaxS11,mean_S11DEG,meanFreq_MaxS22,mean_MaxS22,mean_S22DEG,varFreq_MaxS11,var_MaxS11,var_S11DEG,varFreq_MaxS22,var_MaxS22,var_S22DEG,Weight,Class,Tester
3972.816326530612,-12.032114124475077,5.937536932025708,4052.326530612245,-18.7248646645522,-0.6890322538353458,13.700957934194072,0.0026312300068402736,1.1357995047522587,1.1995002082465658,0.06804334421589588,3.239093164379832,80.0,0,Leo
3974.3673469387754,-12.048677944525425,6.312130802978797,4052.2448979591836,-18.78438492763481,-0.5381729101440058,5.824239900041638,0.001265797989660232,0.887404563086823,0.9196168263223665,0.09574067877293403,2.2310852184693633,80.0,0,Leo
3974.612244897959,-12.041153559526167,6.460566772936175,4052.0,-18.936033673800424,-0.913209174429532,3.625156184922948,0.0007826998177378945,0.8141016183026208,0.0,0.12290771459462728,0.26666292137559916,80.0,0,Leo
3974.7755102040815,-12.028460777896958,6.554176739793308,4052.0,-19.097448566237606,-1.01054026464203,3.3985839233652615,0.000655032184523563,0.8163088827165662,0.0,0.12363023434830878,0.3938678430417986,80.0,0,Leo
3974.6938775510203,-12.015551070375949,6.495695775663096,4052.0,-19.272077896992123,-1.2195768120663444,4.171595168679715,0.00035849603256441436,0.8363526656188792,0.0,0.06600703526348273,0.29469424831331203,80.0,0,Leo
3974.6938775510203,-12.016405407229202,6.471962389521869,4052.0,-19.379285473789505,-1.5167028341731328,4.171595168679714,0.0004729816964579282,0.8160667658112919,0.0,0.04049035856615545,0.5664353816657912,80.0,0,Leo
3974.3673469387754,-12.01533080663734,6.380598367492097,4052.0,-19.311743167846053,-1.9533616800717286,4.518117451062054,0.00041531870246440367,0.8534873154418455,0.0,0.06895223895018768,0.5485177652946448,80.0,0,Leo
3974.285714285714,-12.017575456196276,6.399306746478017,4052.0,-19.25016851335719,-2.204763812765345,4.571428571428568,0.000403918412179044,1.0139925187930245,0.0,0.0732765870233068,0.527854717107909,80.0,0,Leo
3974.285714285714,-12.009759670204064,6.398446661705556,4052.0,-19.21309274768599,-2.4342147123713835,4.571428571428568,0.0008992466796288895,1.0164253078101984,0.0,0.06908092674013999,0.5892425975491812,80.0,0,Leo
3974.6938775510203,-12.002680363306784,6.522311561336572,4052.2448979591836,-19.03508019958144,-2.7487196665949813,3.5185339441899153,0.0012236401728418186,0.9387425624367328,0.9196168263223656,0.10085673886696629,2.0316983751836215,80.0,0,Leo
3975.0204081632655,-11.990570569791506,6.70598516595347,4053.061224489796,-18.8598495045673,-1.8892675564724222,2.958767180341529,0.0010993615549480822,0.8039408939461476,3.118700541441066,0.11358859344105376,5.2051451825601385,80.0,0,Leo
3975.5102040816328,-11.975815359829888,6.856372783457301,4053.877551020408,-18.748315199624074,-1.0279077084453672,1.7192836318200782,0.000685928707056485,0.6067397774082087,3.9850062473969143,0.14890749124540226,6.521410508669555,80.0,0,Leo
3975.918367346939,-11.962388467142379,6.893996372111757,4054.6938775510203,-18.604124005055407,-0.19558958963036102,0.3198667221990834,0.0003323628430641721,0.3182905848511759,3.518533944189914,0.1318673933668324,6.366360082526619,80.0,0,Leo
3976.0,-11.952950557675042,6.866514560293699,4055.5102040816328,-18.42305100067629,0.6462246002295065,0.0,0.0004255265347355736,0.20860224305600142,1.7192836318200782,0.015394995931492086,4.518518743836816,80.0,0,Leo
3976.0,-11.943801087529957,6.8666286398290985,4056.0,-18.379564258666004,1.339589785834494,0.0,0.0004464657501412894,0.11390041991053537,0.0,0.0021000737784056703,0.06475505504315181,80.0,0,Leo
3976.0,-11.933338117587219,6.679870104988072,4056.0,-18.363451968869683,1.1687113383604895,0.0,0.0003677395929173465,0.10063769387299215,0.0,0.0016994540108638526,0.07709437083534235,80.0,0,Leo
3976.0,-11.920756730071558,6.54673520789699,4056.0,-18.35353910863134,1.0638668162232987,0.0,0.00034831075807919225,0.04838186261253109,0.0,0.0015108436348737846,0.07689869410445116,80.0,0,Leo
3976.0,-11.906751213319268,6.591433695288231,4056.0,-18.374656671315122,0.9887944207692998,0.0,0.0003490476167119619,0.07566832644705795,0.0,0.00536071037018095,0.06744254997416665,80.0,0,Leo
3976.0,-11.89759197827043,6.658277208124996,4056.0,-18.42362607807413,0.8854462178400383,0.0,0.0004451472199820852,0.11918287397307539,0.0,0.01580193010711764,0.06392358574250333,80.0,0,Leo
3976.0,-11.884949481198253,6.770752971702931,4055.918367346939,-18.524573149247807,0.8364885059937702,0.0,0.00044356725020559964,0.1494487577804503,0.3198667221990837,0.059160197011561,0.8969430589037409,80.0,0,Leo
3976.0,-11.88200973623178,6.672410968734198,4055.1020408163267,-18.896789595635198,0.28064270944331404,0.0,0.00035440526963495224,0.31313646528682665,2.785506039150353,0.4768279699751732,2.474159124096357,80.0,0,Leo
3976.081632653061,-11.88771633714395,6.5639684816278985,4053.9591836734694,-19.346937351383026,-0.2235622933454375,0.3198667221990837,0.0006485411841553142,0.503623871323554,6.61057892544773,0.7571935539053464,4.620070894784426,80.0,0,Leo
3976.081632653061,-11.895546715961913,6.4286156358979465,4052.326530612245,-19.736303472834624,-0.8202082778084324,0.3198667221990836,0.0007211131825998829,0.4745773413561593,10.342357351103702,0.6885694373355172,4.69243304061358,80.0,0,Leo
3976.081632653061,-11.905633425604448,6.215846275272251,4050.6938775510203,-20.080465430401997,-0.9871592557102781,0.3198667221990835,0.000698076660796297,0.3915185207419287,8.743023740108276,0.4141605458770508,4.243238210232243,80.0,0,Leo
3976.081632653061,-11.9181795283135,5.90297117676809,4049.2244897959185,-20.383223835531815,-1.0824832958422157,0.31986672219908346,0.00011199234461193764,0.18480377720361008,3.3985839233652593,0.021192520753285506,2.8370977188825806,80.0,0,Leo
3976.4897959183672,-11.924487188910941,6.046637944157873,4048.408163265306,-20.409374921773853,-0.7680903444862817,1.7192836318200753,9.992139233544037e-05,0.42224155368614597,1.46605581007913,0.0063577389976745,2.6354930647892236,80.0,0,Leo
3976.9795918367345,-11.926321857624444,6.207676772349558,4048.0,-20.372147493033157,-0.43155921948062437,2.9587671803415243,0.0001083906616599607,0.6689625816141461,0.0,0.0013620976842217063,0.539119315702197,80.0,0,Leo
3977.5510204081634,-11.926279584345139,6.304681099541092,4048.0,-20.379853432507705,0.030533565060471266,3.7984173261141185,0.00010688231779251975,0.9621688519359083,0.0,0.0011481510383948741,0.19319909112308264,80.0,0,Leo
3978.285714285714,-11.925592243749824,6.550880580472347,4048.0,-20.397483089858817,0.36888154782807403,3.918367346938773,0.00010572084270330739,1.1044621156299976,0.0,0.001792617098771919,0.6434637499310757,80.0,0,Leo
3979.0204081632655,-11.927951022185146,6.865442719528608,4048.0,-20.43241072629307,0.6588207192669685,2.958767180341527,9.790002246197894e-05,0.9640454299026335,0.0,0.0053810862758990234,0.7744967738859179,80.0,0,Leo
3979.0204081632655,-11.924559825846126,6.916188256844744,4048.4897959183672,-20.488417594372866,0.5013414517776968,2.9587671803415243,0.00011332207840149248,0.9477592478271215,1.7192836318200753,0.01103440621487807,2.571546866180423,80.0,0,Leo
3978.8571428571427,-11.904068196618155,6.849158784078733,4049.3061224489797,-20.56780561177835,0.9113737813744086,3.2653061224489766,0.0014787147973684765,0.8985507450868029,3.5185339441899197,0.018788111570177818,2.9590228745031446,80.0,0,Leo
3979.1020408163267,-11.909436182977998,6.686770885604931,4049.2244897959185,-20.73969816048202,-0.28235539161309064,4.74468971261974,0.0034825212990897197,0.8803588916957289,4.051645147855058,0.10505388132507239,10.580482644029036,80.0,0,Leo
3979.265306122449,-11.931596812739674,6.497468294036018,4049.6326530612246,-20.914473951826004,-1.6067215985973522,5.011245314452315,0.006168197386855814,0.7698382464576735,6.477301124531443,0.15033423116223418,15.288144106369858,80.0,0,Leo
3979.3469387755104,-11.952784666780271,6.363707129686159,4051.183673469388,-20.8884590613518,-2.3739962277283917,4.79800083298626,0.007907769035772382,0.5915289055115391,11.088713036234896,0.18791382895181868,14.57385606925323,80.0,0,Leo
3979.7551020408164,-11.977777283409745,6.389181148284582,4051.7551020408164,-20.949171719028374,-3.176994494651128,3.5318617242815504,0.008359334226124565,0.3704955064154135,12.021657642648886,0.17417934520361367,15.726807816349108,80.0,0,Leo
3980.081632653061,-12.017550674721626,6.44104997622427,4052.0,-21.01777917921868,-4.142053801765965,2.2790503956684742,0.0025676945334795536,0.23526489988657168,12.408163265306122,0.17827170965991296,10.074146850554458,80.0,0,Leo
3980.0,-12.03110193031764,6.668152999964218,4053.6326530612246,-20.888774013236954,-3.6125757426445566,0.0,0.00012045654347365146,0.09921670140346528,7.1303623490212305,0.15308200009515405,9.873244189679314,80.0,0,Leo
3979.265306122449,-12.034187500208958,6.497533312038726,4054.612244897959,-20.523857894094522,-3.9750339049281798,2.3990004164931285,7.681633410312131e-05,0.465893617625376,3.6251561849229463,0.4111855425468607,7.402433980300838,80.0,0,Leo
3978.8571428571427,-12.034969397034374,6.417667515035471,4055.3469387755104,-20.274305846549424,-3.280344028620635,3.265306122448978,9.821281623311078e-05,0.6385836441095846,6.757184506455645,0.6615506867833257,10.814176005385944,80.0,0,Leo
3978.8571428571427,-12.037875524883239,6.491911019596849,4056.326530612245,-19.922046192504858,-2.545727281278193,3.265306122448978,0.00020039034362325512,0.7297846971517927,7.730112453144519,0.7004543650895643,11.693931133063016,80.0,0,Leo
3978.8571428571427,-12.04645192124167,6.596252567175452,4057.795918367347,-19.430378580140026,-1.526762213312301,3.2653061224489774,0.0003880581627905031,0.828816631009057,4.611411911703456,0.4074111822747391,12.981063410111963,80.0,0,Leo
3978.938775510204,-12.053191711860736,6.476660018842204,4057.877551020408,-19.13517704108291,-2.0165478597776865,3.11870054144107,0.0004363563422689614,0.8167022760572493,3.9850062473969134,0.04632798879684075,13.301118643507923,80.0,0,Leo
3979.673469387755,-12.054739598393196,6.589355319934346,4057.795918367347,-19.17994584486128,-1.7610724339117338,1.1995002082465662,0.00042647736316981326,0.5238643108794419,3.9583506872136605,0.07295598308399479,10.82194503754867,80.0,0,Leo
3980.0,-12.058168559236984,6.514269112441627,4057.2244897959185,-19.257502595999814,-2.5422754912149874,0.0,0.00033951519608183336,0.41783856548425957,3.3985839233652593,0.104765050542879,8.4061299171644,80.0,0,Leo
3980.0,-12.058224978894568,6.268206604821225,4056.6530612244896,-19.363266422214537,-3.289677113936273,0.0,0.00023526750467266756,0.31528577453573153,2.1857559350270677,0.12782648467473778,4.79938931028998,80.0,0,Leo
3980.0,-12.058292197120082,6.030391565623062,4056.0,-19.546716244649147,-4.176403537783594,0.0,0.00010157260551245956,0.037830779090513175,0.0,0.03490160996641914,0.07953025379493102,80.0,0,Leo
3980.0,-12.053876732450918,6.0982833695955145,4056.0,-19.648921237268393,-4.043016555484234,0.0,6.783838977917694e-05,0.037581673457452884,0.0,0.0021557841697606357,0.008875454977040863,80.0,0,Leo
3980.0,-12.04705218520392,6.230211109637021,4056.0,-19.695487421760767,-3.9820499520408084,0.0,0.0002544361779596606,0.0649089686703314,0.0,0.005108390137881798,0.023767924569912325,80.0,0,Leo
3980.0,-12.03755917122529,6.364712826203341,4056.0,-19.755079784443755,-3.8545082637501435,0.0,0.0004752373077638477,0.08502200392529703,0.0,0.010550378424650777,0.0757835722535207,80.0,0,Leo
4008.2448979591836,-14.690921276966968,-1.6013166933464353,3963.673469387755,-18.168283419793983,5.697596141327976,0.9196168263223663,0.0003430654274620656,1.3321334416112742,1.199500208246564,0.0002142805179540357,4.088656130732415,80.0,1,Leo
4008.5714285714284,-14.678439793852483,-1.969043792843622,3963.3469387755104,-18.165910354246073,5.282903793881497,1.9591836734693902,0.0005305984320701322,1.644158730696524,2.185755935027071,0.00022981048400101762,6.8190767822684455,80.0,1,Leo
4008.816326530612,-14.675007844681984,-1.982929685170713,3963.4285714285716,-18.173560513983418,4.668144110093509,5.864223240316533,0.0013206625254156778,1.9946104305036558,9.142857142857144,0.0018099201495935216,10.599931072814766,80.0,1,Leo
4008.2448979591836,-14.680899932173684,-1.9622784548938428,3963.8367346938776,-18.172038177319987,4.319651418692223,7.450229071220326,0.0017106958525442632,1.909534472791546,11.728446480633073,0.0025745682229145034,10.94242119765582,80.0,1,Leo
4008.1632653061224,-14.683728141687302,-1.92018727056821,3964.0,-18.163332012158538,3.6430222497181313,7.810079133694301,0.0018147297819768402,2.0940992001796395,12.408163265306122,0.002753823468956544,11.45704826924035,80.0,1,Leo
4008.408163265306,-14.68300569724863,-1.7905381790764785,3964.2448979591836,-18.15460764193723,3.749790260401127,8.649729279466886,0.0018958325670775673,2.038237457079112,11.368596418159086,0.0030468209647253677,10.061632792708613,80.0,1,Leo
4008.0,-14.692506572232602,-1.735176152216466,3964.5714285714284,-18.15066889442531,3.86032656077182,7.183673469387755,0.0015547746349098069,1.7161083106895714,9.795918367346953,0.0031210762385453375,7.81598175706204,80.0,1,Leo
4007.8367346938776,-14.692540877197507,-1.8112781472899826,3964.2448979591836,-18.135961421032402,3.930882456900808,2.5855893377759256,0.0005555306640318176,1.0253208697586058,2.2257392753019585,0.0008301488078418708,3.704895274180751,80.0,1,Leo
4008.1632653061224,-14.6894651878698,-1.85012787522894,3964.0,-18.13437626231729,4.041530814186608,1.2794668887963339,0.0003929499355767685,0.8920087580318413,1.3061224489795917,0.0002748681821802712,3.2813626574978594,80.0,1,Leo
4008.2448979591836,-14.684992625272812,-2.1142846109077333,3963.8367346938776,-18.131337298197966,4.658828358588829,0.9196168263223665,0.0002858179648051813,0.44925980012663974,0.6264056643065379,0.00020106041452960292,1.8141403269525982,80.0,1,Leo
4008.0,-14.68723478360155,-2.108142707559667,3964.0,-18.13481093088864,4.776550172096395,0.0,0.00011022808143097049,0.28978008311478626,0.0,0.00016888732412673906,0.4554338753575503,80.0,1,Leo
4008.0,-14.683833988363693,-2.1248662958612115,3964.0,-18.135465180859416,4.78629461325894,0.0,0.00011566095008431129,0.26330304807422844,0.0,0.0001751387105991223,0.4737829319962596,80.0,1,Leo
4008.0,-14.681083200602655,-2.1412190727584104,3964.0,-18.139494327006258,4.5726208774529775,0.0,0.00011964771334828093,0.34756307192417407,0.0,0.00024524380262694394,0.7806359072213644,80.0,1,Leo
4008.0,-14.681690064718618,-2.0739911822949026,3964.0,-18.13993024309466,4.564532095528587,0.0,0.00010863520939167527,0.35484477224175204,0.0,0.00020943011403591096,0.6575344280745132,80.0,1,Leo
4008.0,-14.685190338713303,-1.8531510193492817,3964.0,-18.13802336389542,4.410027954461421,0.0,9.293770689893226e-05,0.23916108231035424,0.0,0.0002544220187059335,0.40359765670123665,80.0,1,Leo
4008.0,-14.680835223194203,-2.090682007685947,3964.0,-18.13438406367451,4.720918799924019,0.0,0.00016024725427194603,0.47482002654791866,0.0,0.00032306522656056055,0.8797166434434396,80.0,1,Leo
4008.0,-14.677375536571995,-2.295009208134926,3964.0,-18.13030787325667,4.905600671874151,0.0,0.0002614873407704105,0.7457282003894429,0.0,0.0003355046389381729,0.7936633521845872,80.0,1,Leo
4008.0,-14.672018714354081,-2.6447523894857676,3964.0,-18.123869996118163,5.2628652188780745,0.0,0.00031159349202766474,0.728570114400118,0.0,0.00015656061182114716,0.4136181537142823,80.0,1,Leo
4008.0,-14.664854464825824,-2.9789703335681597,3964.0,-18.121662961649033,5.483760149071911,0.0,0.0002315926483390855,0.5227079156813673,0.0,9.535531574700874e-05,0.27513299393426754,80.0,1,Leo
4008.0,-14.659557571618938,-3.3206125696606783,3964.0,-18.121578886162485,5.633760094863817,0.0,6.680331642259986e-05,0.054358218151164844,0.0,0.00010474125202269071,0.11463736711607286,80.0,1,Leo
4008.2448979591836,-14.658636492939875,-3.172306914769133,3964.0,-18.119384325795043,5.612787107292401,0.9196168263223656,5.535668042475228e-05,0.8593827104590175,0.0,0.0001247600445596006,0.12477710469981095,80.0,1,Leo
4008.2448979591836,-14.66140237064582,-3.053730847025381,3964.0,-18.11780876206197,5.658149325340307,0.919616826322366,7.76400287534348e-05,0.9167238489017823,0.0,0.0001475997837017469,0.18641724166978746,80.0,1,Leo
4008.816326530612,-14.659315045331695,-2.5859488904900036,3964.0,-18.116197747579402,5.9010524034236695,2.5989171178675545,0.00011840205717316386,2.033030435987254,0.0,0.00015839370431606473,0.3177584842578052,80.0,1,Leo
4009.387755102041,-14.65550734495354,-2.51495535810031,3963.3469387755104,-18.127111799520346,5.338992700880269,5.584339858392336,0.0007859887369414389,2.4129182348937555,4.14493960849646,0.0015137407236347532,3.9098151589015275,80.0,1,Leo
4009.5510204081634,-14.653195605200153,-2.286680607291097,3963.3469387755104,-18.147837403280647,5.046028777447303,8.369845897542694,0.001803185491636316,3.5539518973930235,8.716368179925029,0.004069008475104305,6.024002376448936,80.0,1,Leo
4009.387755102041,-14.654434208338891,-2.4254314862616013,3963.5102040816328,-18.163849749823598,5.062923734006959,8.196584756351518,0.0019191232496177186,3.042564404949104,9.556018325697627,0.003859866612447545,7.057672084691752,80.0,1,Leo
4009.387755102041,-14.655399942674602,-2.2285113774452596,3963.591836734694,-18.174344529769947,4.69284925668167,8.196584756351514,0.0019494406074790044,3.0445883032460825,9.955851728446477,0.0033680563443313043,7.885371868681158,80.0,1,Leo
4008.734693877551,-14.657269829649438,-2.5991385663832043,3963.7551020408164,-18.185231728701908,4.094961676805441,6.970428987921706,0.001931287974559824,2.210142645590452,10.715535193669304,0.002449614258379156,8.287887913274423,80.0,1,Leo
4008.326530612245,-14.658259534756834,-2.553603454555356,3964.326530612245,-18.175123854170707,4.233941680127521,3.1586838817159477,0.0011321160452401754,1.5658607937928481,5.117867555185335,0.0008962310420036839,7.044779665407097,80.0,1,Leo
4008.0,-14.663425667817387,-2.4354894580593838,3964.4897959183672,-18.161579438645724,4.221222868184918,0.0,0.0002019334070168814,0.6929591472921797,1.7192836318200773,0.0006780741029105766,6.219600213768092,80.0,1,Leo
4008.0,-14.661716644565786,-2.4371746952385456,3964.326530612245,-18.147397639553905,3.751366191001604,0.0,0.00015696553367732457,0.632713700092243,1.1995002082465653,0.0005492732064409995,4.740845942257225,80.0,1,Leo
4008.1632653061224,-14.659891341797044,-2.4441310722743212,3964.326530612245,-18.14389177085033,4.122769292815577,0.6264056643065389,0.0001352815533444622,0.8821474692364425,2.5056226572261564,0.0005114445438535851,6.471695488527248,80.0,1,Leo
4008.326530612245,-14.661380295823431,-2.278680822280449,3964.081632653061,-18.146862705152127,3.7642877243575223,1.1995002082465644,0.0002503731391559951,1.2682006871651776,1.6259891711786767,0.0010751505896823149,5.22354318428936,80.0,1,Leo
4008.5714285714284,-14.659470517898367,-2.282619751304025,3964.081632653061,-18.160942671984387,4.323068928435876,1.9591836734693888,0.0003507369567930976,1.4266769083994821,1.6259891711786774,0.002313194395191002,5.217748166327957,80.0,1,Leo
4009.387755102041,-14.651537939445637,-1.9229165017760226,3964.081632653061,-18.169984006312855,4.575308395527442,3.6251561849229486,0.0005132986901593446,1.7773094695101512,1.625989171178678,0.002360909065701513,4.396997330964249,80.0,1,Leo
4010.204081632653,-14.643900712181303,-1.4920833769222277,3964.081632653061,-18.18062255341429,5.06157632148737,3.9583506872136605,0.0005061953504844788,1.724676775389,1.6259891711786785,0.001822121853087929,4.636279895647821,80.0,1,Leo
4010.7755102040815,-14.638325176421462,-1.2536820166793397,3964.0,-18.187365280782938,5.395979658737754,3.3985839233652593,0.0004621245750298104,1.3049354422079902,0.0,0.0014344163634946521,2.8334590836860483,80.0,1,Leo
4011.5102040816328,-14.630002855203877,-1.003226747033636,3963.8367346938776,-18.186758225071753,5.81901399278459,1.7192836318200782,0.00014836286082941868,0.9046170433694902,0.6264056643065389,0.0009523759785717737,2.848073167665681,80.0,1,Leo
