meanFreq_MaxS11,mean_MaxS11,mean_S11DEG,meanFreq_MaxS22,mean_MaxS22,mean_S22DEG,varFreq_MaxS11,var_MaxS11,var_S11DEG,varFreq_MaxS22,var_MaxS22,var_S22DEG,Weight,Class,Tester
4029.795918367347,-11.606590855451639,2.054261939214753,4078.612244897959,-19.446632010349465,13.399936840275053,4.611411911703456,0.0005238755815162267,0.3161452549724502,3.625156184922948,0.14379074802645525,5.2354095192084,70.0,0,Carlotta
4028.9795918367345,-11.595524262944945,2.0028959194872904,4077.795918367347,-19.28221742463169,12.875024018390663,3.611828404831327,0.00042350124246101796,0.2998460426124976,3.9583506872136605,0.12955741015160985,5.960783033525187,70.0,0,Carlotta
4027.8367346938776,-11.582926546636221,1.9433634924172905,4076.9795918367345,-19.027565201315547,12.951082104708737,2.5855893377759256,0.00022392219336661405,0.5271748834448765,2.958767180341529,0.10507723740686697,6.268241866938925,70.0,0,Carlotta
4027.1020408163267,-11.571997220520913,1.7750912876078597,4076.408163265306,-18.841317470475733,13.120659247737951,3.43856726364015,0.00018001274188214741,0.6737077460387851,1.4660558100791308,0.09173479143687663,4.794428271182463,70.0,0,Carlotta
4026.938775510204,-11.564802517865648,1.8575822955379617,4076.081632653061,-18.70407054273143,13.437085935501985,3.7717617659308638,0.00022951709605115614,0.8581179436035135,0.3198667221990834,0.06330605999392414,3.1455923158863017,70.0,0,Carlotta
4026.8571428571427,-11.55712713565441,2.0115389675219806,4076.0,-18.632326060325624,13.883028295443392,3.2653061224489774,0.00017765330546789962,0.8788082150246156,0.0,0.04200606956657535,2.072462964101481,70.0,0,Carlotta
4026.8571428571427,-11.550153270228307,2.132936871921773,4076.0,-18.55608046105199,14.573153054237379,3.2653061224489766,7.608510391278329e-05,0.9594599920966965,0.0,0.007657498606378299,0.20986650055280184,70.0,0,Carlotta
4027.183673469388,-11.54440897948419,2.285464999514455,4076.0,-18.55983944630806,14.674504702346002,2.598917117867554,3.084288376162462e-05,0.7216931191455346,0.0,0.004932391974167722,0.06692019125502223,70.0,0,Carlotta
4027.8367346938776,-11.541707481666899,2.501596992355469,4076.0,-18.58595539241987,14.619068045673773,0.6264056643065379,2.9645089423070025e-05,0.24376072237842558,0.0,0.0018018835624279501,0.03143961897634775,70.0,0,Carlotta
4028.0,-11.539379742686773,2.4337995247017044,4076.0,-18.591782450447973,14.675781066247072,0.0,2.626209347673147e-05,0.11131789678589214,0.0,0.0008310982581113254,0.03187287852127094,70.0,0,Carlotta
4028.0,-11.53687790961563,2.229379527180062,4076.0,-18.592579895456247,14.686531519937436,0.0,2.6155956386221936e-05,0.1322119991956682,0.0,0.000828916700101839,0.032943419509180075,70.0,0,Carlotta
4028.0,-11.533851151168989,2.0686130719017797,4076.0,-18.572693633433673,14.713053680620982,0.0,2.2589918685776212e-05,0.07445337209745043,0.0,0.0011736276863005548,0.027924469384113623,70.0,0,Carlotta
4028.0,-11.531805857953735,1.9559539385429492,4076.0,-18.5659796580976,14.753948544047164,0.0,2.662813227553191e-05,0.03139767024196689,0.0,0.0012758840457106826,0.03271880210800608,70.0,0,Carlotta
4028.0,-11.529121237969647,1.9223531813540025,4076.0,-18.55213502783884,14.820953640389353,0.0,2.7507676078856682e-05,0.02436766700173834,0.0,0.0019599824785483154,0.05115347875639182,70.0,0,Carlotta
4028.0,-11.526138422150227,1.8609259776732725,4076.0,-18.543918607449342,14.873492109274721,0.0,2.960645186128745e-05,0.03487125875826569,0.0,0.0022295357394882154,0.060719580780304684,70.0,0,Carlotta
4028.0,-11.524325046274534,1.8197446585474941,4076.0,-18.523626441372308,15.003549790573864,0.0,2.0197467167965187e-05,0.0457965487853022,0.0,0.0017621466403638052,0.07267176135043148,70.0,0,Carlotta
4028.0,-11.523094516364345,1.7135250160025723,4076.0,-18.50756578186813,15.228446781450012,0.0,1.3950811738966982e-05,0.07409639899731772,0.0,0.002779553091393128,0.16102778002446372,70.0,0,Carlotta
4028.0,-11.522510095748117,1.587819026763931,4076.0,-18.4945805565241,15.411448176187749,0.0,1.0931794274668574e-05,0.09282507829096798,0.0,0.002439993166423292,0.17335239663068688,70.0,0,Carlotta
4028.0,-11.522092373972837,1.500152471074984,4076.0,-18.500853931512246,15.448839483373083,0.0,1.053603295298209e-05,0.056727537102332096,0.0,0.00219768556223599,0.13967131024583723,70.0,0,Carlotta
4028.0,-11.52259130726518,1.4913687065897736,4076.0,-18.48222640268954,15.562755043568538,0.0,5.944143686680426e-06,0.06622544247316844,0.0,0.006044486718610397,0.19221903756769737,70.0,0,Carlotta
4028.0,-11.521485240005443,1.6627492192591615,4076.0,-18.450322137199645,15.764473351293372,0.0,1.1504227292677801e-05,0.21264857087384548,0.0,0.01340729281313824,0.3506974914017517,70.0,0,Carlotta
4028.0,-11.519973976135844,1.8064724815885165,4076.0,-18.45765678973621,15.715429287982145,0.0,1.721611717838135e-05,0.20694504474162587,0.0,0.013323261468480797,0.34776598688072674,70.0,0,Carlotta
4028.0,-11.51871409767644,1.926672555700995,4076.0,-18.47166691647193,15.655059631917329,0.0,1.7157098560362263e-05,0.12368717469773417,0.0,0.01510217514476519,0.34804178639703137,70.0,0,Carlotta
4028.0,-11.516901288853147,2.1692173867511086,4076.0,-18.47021483927447,15.694202224291598,0.0,2.4070986770059234e-05,0.24012260631577975,0.0,0.017255014467894427,0.36053456090709374,70.0,0,Carlotta
4028.0,-11.51512156042952,2.265213427015564,4076.0,-18.559583586066193,15.148700569863333,0.0,1.3244647749348655e-05,0.1731773611657863,0.0,0.03031968459724358,1.2267529272197384,70.0,0,Carlotta
4028.0,-11.51362861420699,2.2256303327240836,4076.0,-18.64217350499375,14.610154959424083,0.0,1.7631606362165015e-05,0.1741317043767893,0.0,0.023918283685465364,1.2481355306584232,70.0,0,Carlotta
4028.0,-11.51222325904792,2.2144366643057003,4076.0,-18.67272924240353,14.338978208458503,0.0,2.1278326847184295e-05,0.2031635003170049,0.0,0.018035959939048593,0.9850900530676769,70.0,0,Carlotta
4028.0,-11.510415151128633,2.363862986639998,4076.0,-18.665224778604635,14.212251152863072,0.0,1.6288009365677403e-05,0.18018125682250358,0.0,0.019855224477240616,0.7768115198268626,70.0,0,Carlotta
4028.0,-11.509040714536507,2.352029827547523,4076.0,-18.646704006245358,14.211597945330805,0.0,1.9794762194649555e-05,0.141766933832167,0.0,0.02406619419634453,0.7417714260512707,70.0,0,Carlotta
4027.7551020408164,-11.505261393097042,2.3997833679629155,4076.0,-18.538348287584345,14.875148696833744,0.9196168263223659,3.3220780840521043e-05,0.37567768482411373,0.0,0.025694054489360702,0.9171319263671597,70.0,0,Carlotta
4027.7551020408164,-11.502629304320289,2.533497925862759,4076.0,-18.461025798087693,15.36491499108518,0.919616826322366,4.0169007047769e-05,0.3847195128738373,0.0,0.014022284251647385,0.6011816872687564,70.0,0,Carlotta
4027.7551020408164,-11.501651585995385,2.591851539211195,4076.0,-18.417168956966623,15.702944421026382,0.9196168263223663,5.3612960230974847e-05,0.43074644744978985,0.0,0.006189892337637625,0.34026282379723466,70.0,0,Carlotta
4028.081632653061,-11.505415590633499,2.412978223345288,4075.918367346939,-18.38162698227612,15.866722122059658,2.279050395668474,0.00016224157194046654,0.7522213322604647,0.3198667221990837,0.0035792198495869423,1.0151682271551516,70.0,0,Carlotta
4028.081632653061,-11.508899708172061,2.1328407268285265,4075.918367346939,-18.354798819203857,16.113090759688955,2.2790503956684742,0.00020741877831977483,0.8744111162761514,0.31986672219908363,0.0038868787656361446,1.0437027313582137,70.0,0,Carlotta
4028.326530612245,-11.511414373524252,2.0214899983796304,4075.918367346939,-18.390373092218773,15.90932050548487,1.199500208246565,0.00016548253075212893,0.648291911334645,0.3198667221990836,0.006799961130162423,1.1356671783244208,70.0,0,Carlotta
4028.326530612245,-11.513142329626852,1.8972735044108724,4075.918367346939,-18.41276327748612,15.791232311978101,1.1995002082465656,0.0001238315193655155,0.4999225152331071,0.3198667221990835,0.008841749883119459,1.1723031032185074,70.0,0,Carlotta
4028.2448979591836,-11.513264455842172,1.89840636970546,4075.918367346939,-18.424792916255864,15.636100054005238,0.9196168263223664,9.508376823003082e-05,0.37683014033661666,0.31986672219908346,0.009277580005876593,1.1867403851879423,70.0,0,Carlotta
4028.0,-11.507974854774021,2.101944968114665,4076.0,-18.444098325284397,15.610520283238708,0.0,5.3873966418987226e-05,0.21567770435723532,0.0,0.007034098860750847,0.30947967943828747,70.0,0,Carlotta
4028.0,-11.503786381511114,2.347037929150215,4076.0,-18.459008766588752,15.490883647420782,0.0,1.6729520377367053e-05,0.0976123331836261,0.0,0.002215856153597189,0.0695100937989287,70.0,0,Carlotta
4028.0,-11.501805783100417,2.4658175651872223,4076.0,-18.430076383205396,15.654689223590314,0.0,1.7777179497069127e-05,0.05601420422108303,0.0,0.003999351994593504,0.13358220132915108,70.0,0,Carlotta
4028.0,-11.499543936559874,2.6166130126978047,4076.0,-18.396322733167555,15.851230342596457,0.0,2.274240537322838e-05,0.07030020865302988,0.0,0.0035115616502887697,0.17824633004064905,70.0,0,Carlotta
4028.0,-11.497058541399783,2.763321436881829,4076.0,-18.360861078161754,16.101349254005115,0.0,1.4632053690947853e-05,0.07759881691360242,0.0,0.0027721269516485627,0.116632804897309,70.0,0,Carlotta
4027.8367346938776,-11.495562226229312,2.791301423854779,4076.0,-18.32712321091891,16.33803639726903,0.6264056643065389,1.2947753284882228e-05,0.26928574178947434,0.0,0.002681704634469406,0.09560848213849416,70.0,0,Carlotta
4027.591836734694,-11.494579277936099,2.7642504140854998,4076.0,-18.29835844012879,16.520604921093113,1.4660558100791339,1.0824132025772034e-05,0.5229858560979812,0.0,0.0021116375699395573,0.07782264352019327,70.0,0,Carlotta
4027.4285714285716,-11.492870541032836,2.7958341487400293,4076.0,-18.274680890678752,16.681638415615925,1.9591836734693888,1.0947429661432517e-05,0.7108837704166749,0.0,0.001687610164825955,0.059377204613377345,70.0,0,Carlotta
4028.0,-11.496651096462674,2.6443296283494186,4075.265306122449,-18.245600453332006,15.529282145103913,5.877551020408164,0.00012570217741179397,0.8751563036577584,2.399000416493129,0.001901319436499945,6.75470923182225,70.0,0,Carlotta
4029.061224489796,-11.505589384453272,2.3579569825973348,4075.0204081632655,-18.243308916867285,15.158745469296075,10.955435235318621,0.0004174968279162305,1.0661049207197633,2.9587671803415256,0.002258184040452526,8.635547303572961,70.0,0,Carlotta
4029.6326530612246,-11.507606378036627,2.2063987567061663,4075.0204081632655,-18.274389363910647,15.051058249999649,10.395668471470211,0.0003989327417523769,1.0557588643199853,2.958767180341528,0.007651263752924019,8.343688545478535,70.0,0,Carlotta
4029.9591836734694,-11.50866528351923,2.0838564710689425,4075.0204081632655,-18.281689498925985,14.98339252090074,7.916701374427312,0.00037763316729008315,0.8327414741032169,2.958767180341529,0.009753696286051034,8.153287761965364,70.0,0,Carlotta
4030.0408163265306,-11.50875019312638,2.033579014322499,4074.204081632653,-18.21715378025923,13.740612401697756,7.263640149937522,0.0003729348934835355,0.6713279135299512,3.9583506872136605,0.033100478522696694,9.431561319221201,70.0,0,Carlotta
4029.3061224489797,-11.50386871667089,2.1563949780962495,4074.122448979592,-18.148369200863275,13.900559175633392,6.130778842149093,0.0003614597487436445,0.6370054394443612,3.9850062473969143,0.05699841116790466,7.641360669564298,70.0,0,Carlotta
4028.2448979591836,-11.494239879403032,2.34037893149985,4073.5510204081634,-18.053393999900166,13.287767342568026,1.5726780508121625,4.7961384122090774e-05,0.5511116277121574,3.7984173261141168,0.06131433021560216,6.367592265502568,70.0,0,Carlotta
4027.918367346939,-11.491840821057146,2.581158686713847,4072.734693877551,-17.927396063136737,12.366973939985915,0.3198667221990835,2.58784327743096e-05,0.30834577187094125,2.399000416493123,0.03147224208622084,4.279953284879151,70.0,0,Carlotta
4027.918367346939,-11.489916676574346,2.8252290476171127,4072.0,-17.83431384453712,11.508596865131,0.31986672219908346,1.6984857859272603e-05,0.12221027540300364,0.0,0.0037426995047206407,0.16064938754350058,70.0,0,Carlotta
4028.0,-11.4891531755311,2.921701474046487,4072.0,-17.804385838446294,11.743671569728743,0.0,1.8496110221471805e-05,0.025939374632658073,0.0,0.0014208949539074246,0.05737847523797858,70.0,0,Carlotta
4028.0,-11.4878395971336,2.9993948751541892,4072.0,-17.786642628797736,11.884141788107582,0.0,1.5723659714579862e-05,0.03218189428614639,0.0,0.0014647424482097232,0.08697721248346214,70.0,0,Carlotta
4027.265306122449,-11.486465875635863,2.667405420096857,4072.0,-17.77578157887077,12.001508005334959,2.399000416493129,1.6718847768454028e-05,0.7161720898206854,0.0,0.0009536727117878511,0.06663888554604533,70.0,0,Carlotta
4026.4489795918366,-11.484560771975113,2.346633097562192,4072.0,-17.771855967645415,12.075910822266744,3.7984173261141185,1.833291803490114e-05,0.9281486785685276,0.0,0.0009104437806351345,0.046837007573016044,70.0,0,Carlotta
4026.0408163265306,-11.482373636668354,2.150933844813654,4072.0,-17.776320169759952,12.10699254482253,3.9983340274885473,1.9975575330604797e-05,1.091205983852292,0.0,0.0010542181263429866,0.0323842687031147,70.0,0,Carlotta
4025.6326530612246,-11.479297154360978,1.9272040778990147,4072.0,-17.779976901776813,12.098384224411703,3.8650562265722592,3.1306318757095183e-05,1.0995442176874706,0.0,0.0014857603541351047,0.033401739535866254,70.0,0,Carlotta
4026.530612244898,-11.485743301252063,1.674144895069939,4072.0,-17.751513627163927,12.176319303265009,10.249062890462309,0.0002847527794505728,0.7937440766927387,0.0,0.007182860126486794,0.10006468314271226,70.0,0,Carlotta
4028.1632653061224,-11.495900098351823,1.6898266914537512,4072.0,-17.705011532680228,12.265110997297613,13.687630154102468,0.0006368906189061451,0.7299718833710509,0.0,0.011911585847628496,0.11799569240204034,70.0,0,Carlotta
4030.0408163265306,-11.508862916319226,1.7963823264784033,4072.0,-17.67301900709651,12.265975691478458,12.48812994585588,0.0008920808547535772,0.8820325089301063,0.0,0.01137152060563306,0.13669743726842876,70.0,0,Carlotta
4031.265306122449,-11.522475452039188,1.6724543489051136,4072.0,-17.636729715642776,12.275429716380795,8.929612661391094,0.0007607651984428536,0.709444402958005,0.0,0.007518808811480359,0.14513938099990648,70.0,0,Carlotta
4031.591836734694,-11.525406945348065,1.493515289071212,4072.081632653061,-17.689610355059447,12.156408149868403,4.731361932528111,0.0005118462260956528,0.5393268207245613,0.3198667221990837,0.03547545400976761,1.1022124329417713,70.0,0,Carlotta
4030.7755102040815,-11.51725599995318,1.4612032560914778,4072.816326530612,-17.79109974210061,13.019624538535837,6.663890045814237,0.0008343336381427188,0.5016581416601081,2.5989171178675545,0.057209999048029155,5.737414476125149,70.0,0,Carlotta
4029.877551020408,-11.506442611057034,1.582075850357483,4072.8979591836733,-17.89170655531209,12.743610664586406,6.59725114535609,0.0009619656274283244,0.4802356689616814,2.785506039150352,0.05011712416560498,7.186464653401988,70.0,0,Carlotta
4028.816326530612,-11.491682354918117,1.7469923652856292,4072.9795918367345,-17.94916885681441,12.751473593364768,3.251978342357362,0.0006698663068652857,0.4784414777043483,2.958767180341527,0.03379199229370358,7.885579146595545,70.0,0,Carlotta
4028.0,-11.477143731691879,2.048351255119509,4072.9795918367345,-17.977408430183246,12.723916125227719,0.0,4.951418842661247e-05,0.5849137253249621,2.958767180341529,0.018735479326962,7.918468655147077,70.0,0,Carlotta
4027.5102040816328,-11.473544498570407,2.2405536425622117,4072.816326530612,-17.90140410547049,12.765269674709428,1.7192836318200753,3.9783816732013876e-05,0.5666851191007716,2.598917117867554,0.026835701828314587,6.383295278557474,70.0,0,Carlotta
4026.6938775510203,-11.470469036663014,2.3258940636618886,4072.1632653061224,-17.798463733888916,12.080106102430326,3.5185339441899197,3.135603105023817e-05,0.43881451306508745,0.6264056643065381,0.0286016255199867,1.9167696162811498,70.0,0,Carlotta
4025.877551020408,-11.467012234564645,2.2618748959945396,4072.0,-17.70354562495087,12.256972364760458,3.9850062473969134,1.8138152112117317e-05,0.4929104773356329,0.0,0.015757662015328033,0.3523976060392212,70.0,0,Carlotta
4025.061224489796,-11.464814293552529,1.9760340103297676,4072.0,-17.66050815066462,12.457753649647023,3.11870054144107,2.0907028799585273e-05,0.5749245115162454,0.0,0.007382460260605647,0.20935855554173663,70.0,0,Carlotta
4024.2448979591836,-11.463964606437978,1.7895516187848393,4072.0,-17.59828456570782,12.83278977422999,0.9196168263223665,1.7620993593204024e-05,0.3271826914041229,0.0,0.013767676315413868,0.3693310861511719,70.0,0,Carlotta
4024.0,-11.461546001428335,1.9893936522971343,4072.0,-17.492467136421876,13.336946745696673,0.0,2.5684227332918613e-05,0.40024586285178304,0.0,0.0406246239125784,0.9353354728411352,70.0,0,Carlotta
4062.0408163265306,-12.705113691759347,1.390936517455387,4068.0,-17.557019843978374,18.08891640095919,3.9983340274885473,0.00046522529912270175,1.768856587045726,0.0,0.0012664231651894696,0.5277090437061355,70.0,1,Carlotta
4062.6938775510203,-12.713158260162581,1.6667028907795212,4068.081632653061,-17.556519032988252,17.992166605907048,3.518533944189914,0.0005148243014640252,1.5051413944320804,0.3198667221990837,0.0010360567085529013,1.1487579885857406,70.0,1,Carlotta
4063.183673469388,-12.71399738769717,2.0255463481166833,4068.081632653061,-17.55807489841068,18.327738030752077,2.598917117867554,0.0005293558803422177,1.2902975049241194,0.31986672219908363,0.0013595734908029519,1.1818930077242866,70.0,1,Carlotta
4063.0204081632655,-12.706627679513115,2.0822817872231822,4068.081632653061,-17.56068543570917,18.536699582482715,2.9587671803415243,0.0010816586487381798,1.0561821899934278,0.3198667221990836,0.0012838043321589674,1.3949359440740845,70.0,1,Carlotta
4062.3673469387754,-12.681952005715923,2.1254593434836537,4068.081632653061,-17.57935004393399,18.267970587092336,3.8650562265722606,0.0024107620588514206,0.8257925463965653,0.3198667221990835,0.001201695567475993,1.5103461888485954,70.0,1,Carlotta
4061.5510204081634,-12.658861391471019,1.9052517978669359,4068.081632653061,-17.586885765694696,18.18155754400184,3.7984173261141168,0.002697703147034829,0.7423711521282026,0.31986672219908346,0.0010410068545721007,1.5387240116757908,70.0,1,Carlotta
4060.734693877551,-12.638259216066801,1.6570514180283296,4068.0,-17.57541676359519,18.650858136659792,2.3990004164931236,0.001271282629613172,0.8774583363074253,0.0,0.0015117611398349116,1.0462664967203146,70.0,1,Carlotta
4060.2448979591836,-12.622387193313244,1.6112245903166218,4068.0,-17.571709027875233,18.56289371591229,0.9196168263223665,0.000652656798365769,0.4905907282088431,0.0,0.001187685316109984,0.9129000645055665,70.0,1,Carlotta
4060.0,-12.615037730008238,1.5580014345785722,4068.0,-17.570889224745628,18.416020506942594,0.0,0.0001708541627075332,0.20134912118773904,0.0,0.001106373055792428,0.6780438475267283,70.0,1,Carlotta
4060.0,-12.62170182915799,1.3512962368777028,4068.0,-17.556425383570392,18.65860532076896,0.0,0.00022085599648811687,0.20295797832377585,0.0,0.0006282521648261401,0.48814980112135486,70.0,1,Carlotta
4060.0,-12.628885244936004,1.187949735253276,4068.0,-17.548554713339577,18.831607181401473,0.0,0.0002480852019430772,0.21870104800665655,0.0,0.00032369157892544326,0.3440524978147128,70.0,1,Carlotta
4060.0,-12.633199034983342,1.1238605932297818,4068.0,-17.54839065602033,18.667059641478026,0.0,0.00033372379634561664,0.25684270799236364,0.0,0.00027200173111287257,0.14074212675732398,70.0,1,Carlotta
4060.0,-12.641757110804315,0.8985816510588377,4068.0,-17.53888366347721,18.800320258120472,0.0,0.00019425820397174498,0.1725288960691586,0.0,0.00029674643349896103,0.18058248960914303,70.0,1,Carlotta
